T632C 000:221.591   SEGGER J-Link V8.24 Log File
T632C 000:221.736   DLL Compiled: Mar 26 2025 15:29:23
T632C 000:221.740   Logging started @ 2025-06-01 13:50
T632C 000:221.744   Process: E:\Keil_MDK\UV4\UV4.exe
T632C 000:221.755 - 221.747ms 
T632C 000:221.763 JLINK_SetWarnOutHandler(...)
T632C 000:221.767 - 0.005ms 
T632C 000:221.771 JLINK_OpenEx(...)
T632C 000:227.821   Firmware: J-Link OB-RA4M2-Full compiled Feb 20 2025 16:35:05
T632C 000:228.629   Firmware: J-Link OB-RA4M2-Full compiled Feb 20 2025 16:35:05
T632C 000:259.368   Hardware: V1.00
T632C 000:259.392   S/N: 24060502
T632C 000:259.398   OEM: SEGGER
T632C 000:259.403   Feature(s): GDB, FlashDL, FlashBP, JFlash, RDI
T632C 000:259.981   Bootloader: 2021 May 14
T632C 000:260.371   USB speed mode: Full speed (12 MBit/s)
T632C 000:260.715   TELNET listener socket opened on port 19021
T632C 000:260.846   WEBSRV WEBSRV_Init(): Starting webserver thread(s)
T632C 000:261.009   WEBSRV Webserver running on local port 19080
T632C 000:261.170   Looking for J-Link GUI Server exe at: E:\Keil_MDK\ARM\Segger\JLinkGUIServer.exe
T632C 000:261.230   Looking for J-Link GUI Server exe at: C:\Program Files\SEGGER\JLink_V824\JLinkGUIServer.exe
T632C 000:261.259   Forking J-Link GUI Server: C:\Program Files\SEGGER\JLink_V824\JLinkGUIServer.exe
T632C 000:267.426   J-Link GUI Server info: "J-Link GUI server V8.24 "
T632C 000:267.699 - 45.916ms returns "O.K."
T632C 000:267.721 JLINK_SetErrorOutHandler(...)
T632C 000:267.726 - 0.004ms 
T632C 000:267.744 JLINK_ExecCommand("ProjectFile = "e:\my_project_new\ECGmeasuring\f103_EGC\MDK-ARM\JLinkSettings.ini"", ...). 
T632C 000:283.481   Ref file found at: E:\Keil_MDK\ARM\Segger\JLinkDevices.ref
T632C 000:283.584   REF file references invalid XML file: C:\Program Files\SEGGER\JLink_V824\JLinkDevices.xml
T632C 000:285.252 - 17.506ms returns 0x00
T632C 000:286.027 JLINK_ExecCommand("Device = STM32F103RE", ...). 
T632C 000:286.515   Device "STM32F103RE" selected.
T632C 000:286.882 - 0.846ms returns 0x00
T632C 000:286.893 JLINK_ExecCommand("DisableConnectionTimeout", ...). 
T632C 000:286.907   ERROR: Unknown command
T632C 000:286.912 - 0.014ms returns 0x01
T632C 000:286.918 JLINK_GetHardwareVersion()
T632C 000:286.923 - 0.003ms returns 10000
T632C 000:286.928 JLINK_GetDLLVersion()
T632C 000:286.931 - 0.003ms returns 82400
T632C 000:286.935 JLINK_GetOEMString(...)
T632C 000:286.940 JLINK_GetFirmwareString(...)
T632C 000:286.944 - 0.003ms 
T632C 000:288.324 JLINK_GetDLLVersion()
T632C 000:288.331 - 0.006ms returns 82400
T632C 000:288.336 JLINK_GetCompileDateTime()
T632C 000:288.340 - 0.003ms 
T632C 000:288.505 JLINK_GetFirmwareString(...)
T632C 000:288.509 - 0.004ms 
T632C 000:288.701 JLINK_GetHardwareVersion()
T632C 000:288.705 - 0.004ms returns 10000
T632C 000:288.859 JLINK_GetSN()
T632C 000:288.864 - 0.004ms returns 24060502
T632C 000:289.191 JLINK_GetOEMString(...)
T632C 000:289.477 JLINK_TIF_Select(JLINKARM_TIF_SWD)
T632C 000:290.088 - 0.610ms returns 0x00
T632C 000:290.102 JLINK_HasError()
T632C 000:290.113 JLINK_SetSpeed(5000)
T632C 000:290.218 - 0.109ms 
T632C 000:290.230 JLINK_GetId()
T632C 000:290.568   InitTarget() start
T632C 000:290.579    J-Link Script File: Executing InitTarget()
T632C 000:290.962   SWD selected. Executing JTAG -> SWD switching sequence.
T632C 000:294.984   DAP initialized successfully.
T632C 000:301.242   InitTarget() end - Took 8.05ms
T632C 000:302.168   Found SW-DP with ID 0x1BA01477
T632C 000:304.240   DPIDR: 0x1BA01477
T632C 000:304.382   CoreSight SoC-400 or earlier
T632C 000:304.519   Scanning AP map to find all available APs
T632C 000:305.143   AP[1]: Stopped AP scan as end of AP map has been reached
T632C 000:305.280   AP[0]: AHB-AP (IDR: 0x14770011, ADDR: 0x00000000)
T632C 000:305.414   Iterating through AP map to find AHB-AP to use
T632C 000:306.410   AP[0]: Core found
T632C 000:306.580   AP[0]: AHB-AP ROM base: 0xE00FF000
T632C 000:307.313   CPUID register: 0x411FC231. Implementer code: 0x41 (ARM)
T632C 000:307.471   Found Cortex-M3 r1p1, Little endian.
T632C 000:307.842   -- Max. mem block: 0x0001D890
T632C 000:308.177   CPU_ReadMem(4 bytes @ 0xE000EDF0)
T632C 000:308.504   CPU_ReadMem(4 bytes @ 0xE0002000)
T632C 000:308.995   FPUnit: 6 code (BP) slots and 2 literal slots
T632C 000:309.005   CPU_ReadMem(4 bytes @ 0xE000EDFC)
T632C 000:309.272   CPU_WriteMem(4 bytes @ 0xE000EDFC)
T632C 000:309.525   CPU_ReadMem(4 bytes @ 0xE0001000)
T632C 000:309.780   CPU_WriteMem(4 bytes @ 0xE0001000)
T632C 000:310.015   CPU_ReadMem(4 bytes @ 0xE000ED88)
T632C 000:310.251   CPU_WriteMem(4 bytes @ 0xE000ED88)
T632C 000:310.511   CPU_ReadMem(4 bytes @ 0xE000ED88)
T632C 000:310.763   CPU_WriteMem(4 bytes @ 0xE000ED88)
T632C 000:311.213   CoreSight components:
T632C 000:311.351   ROMTbl[0] @ E00FF000
T632C 000:311.359   CPU_ReadMem(64 bytes @ 0xE00FF000)
T632C 000:312.003   CPU_ReadMem(32 bytes @ 0xE000EFE0)
T632C 000:312.719   [0][0]: E000E000 CID B105E00D PID 001BB000 SCS
T632C 000:312.728   CPU_ReadMem(32 bytes @ 0xE0001FE0)
T632C 000:313.346   [0][1]: E0001000 CID B105E00D PID 001BB002 DWT
T632C 000:313.354   CPU_ReadMem(32 bytes @ 0xE0002FE0)
T632C 000:313.965   [0][2]: E0002000 CID B105E00D PID 000BB003 FPB
T632C 000:313.972   CPU_ReadMem(32 bytes @ 0xE0000FE0)
T632C 000:314.589   [0][3]: E0000000 CID B105E00D PID 001BB001 ITM
T632C 000:314.596   CPU_ReadMem(32 bytes @ 0xE0040FE0)
T632C 000:315.322   [0][4]: E0040000 CID B105900D PID 001BB923 TPIU-Lite
T632C 000:315.328   CPU_ReadMem(32 bytes @ 0xE0041FE0)
T632C 000:315.988   [0][5]: E0041000 CID B105900D PID 101BB924 ETM-M3
T632C 000:316.207 - 25.976ms returns 0x1BA01477
T632C 000:316.221 JLINK_GetDLLVersion()
T632C 000:316.225 - 0.003ms returns 82400
T632C 000:316.232 JLINK_CORE_GetFound()
T632C 000:316.236 - 0.004ms returns 0x30000FF
T632C 000:316.277 JLINK_GetDebugInfo(0x100 = JLINKARM_ROM_TABLE_ADDR_INDEX)
T632C 000:316.282   Value=0xE00FF000
T632C 000:316.287 - 0.010ms returns 0
T632C 000:316.458 JLINK_GetDebugInfo(0x100 = JLINKARM_ROM_TABLE_ADDR_INDEX)
T632C 000:316.462   Value=0xE00FF000
T632C 000:316.467 - 0.009ms returns 0
T632C 000:316.472 JLINK_GetDebugInfo(0x101 = JLINKARM_DEBUG_INFO_ETM_ADDR_INDEX)
T632C 000:316.476   Value=0xE0041000
T632C 000:316.480 - 0.008ms returns 0
T632C 000:316.485 JLINK_GetDebugInfo(0x102 = JLINKARM_DEBUG_INFO_MTB_ADDR_INDEX)
T632C 000:316.488   Value=0x00000000
T632C 000:316.493 - 0.008ms returns 0
T632C 000:316.497 JLINK_GetDebugInfo(0x103 = JLINKARM_DEBUG_INFO_TPIU_ADDR_INDEX)
T632C 000:316.501   Value=0xE0040000
T632C 000:316.506 - 0.008ms returns 0
T632C 000:316.510 JLINK_GetDebugInfo(0x104 = JLINKARM_DEBUG_INFO_ITM_ADDR_INDEX)
T632C 000:316.513   Value=0xE0000000
T632C 000:316.518 - 0.008ms returns 0
T632C 000:316.523 JLINK_GetDebugInfo(0x105 = JLINKARM_DEBUG_INFO_DWT_ADDR_INDEX)
T632C 000:316.526   Value=0xE0001000
T632C 000:316.531 - 0.008ms returns 0
T632C 000:316.535 JLINK_GetDebugInfo(0x106 = JLINKARM_DEBUG_INFO_FPB_ADDR_INDEX)
T632C 000:316.539   Value=0xE0002000
T632C 000:316.544 - 0.008ms returns 0
T632C 000:316.548 JLINK_GetDebugInfo(0x107 = JLINKARM_DEBUG_INFO_NVIC_ADDR_INDEX)
T632C 000:316.551   Value=0xE000E000
T632C 000:316.556 - 0.008ms returns 0
T632C 000:316.561 JLINK_GetDebugInfo(0x10C = JLINKARM_DEBUG_INFO_DBG_ADDR_INDEX)
T632C 000:316.564   Value=0xE000EDF0
T632C 000:316.569 - 0.008ms returns 0
T632C 000:316.574 JLINK_ReadMemU32(0xE000ED00, 0x1 Items)
T632C 000:316.585   CPU_ReadMem(4 bytes @ 0xE000ED00)
T632C 000:316.834   Data:  31 C2 1F 41
T632C 000:316.841   Debug reg: CPUID
T632C 000:316.846 - 0.272ms returns 1 (0x1)
T632C 000:316.852 JLINK_HasError()
T632C 000:316.857 JLINK_SetResetType(JLINKARM_CM3_RESET_TYPE_NORMAL)
T632C 000:316.861 - 0.004ms returns JLINKARM_CM3_RESET_TYPE_NORMAL
T632C 000:316.866 JLINK_Reset()
T632C 000:316.873   JLINK_GetResetTypeDesc
T632C 000:316.876   - 0.003ms 
T632C 000:317.077   Reset type: NORMAL (https://wiki.segger.com/J-Link_Reset_Strategies)
T632C 000:317.082   CPU is running
T632C 000:317.089   CPU_WriteMem(4 bytes @ 0xE000EDF0)
T632C 000:317.376   CPU is running
T632C 000:317.387   CPU_WriteMem(4 bytes @ 0xE000EDFC)
T632C 000:317.883   Reset: Halt core after reset via DEMCR.VC_CORERESET.
T632C 000:318.390   Reset: Reset device via AIRCR.SYSRESETREQ.
T632C 000:318.398   CPU is running
T632C 000:318.405   CPU_WriteMem(4 bytes @ 0xE000ED0C)
T632C 000:371.210   CPU_ReadMem(4 bytes @ 0xE000EDF0)
T632C 000:371.474   CPU_ReadMem(4 bytes @ 0xE000EDF0)
T632C 000:374.399   CPU_WriteMem(4 bytes @ 0xE000EDFC)
T632C 000:380.849   CPU_ReadMem(4 bytes @ 0xE000EDF0)
T632C 000:383.870   CPU_WriteMem(4 bytes @ 0xE0002000)
T632C 000:384.147   CPU_ReadMem(4 bytes @ 0xE000EDFC)
T632C 000:384.396   CPU_ReadMem(4 bytes @ 0xE0001000)
T632C 000:384.678 - 67.811ms 
T632C 000:384.707 JLINK_Halt()
T632C 000:384.711 - 0.004ms returns 0x00
T632C 000:384.715 JLINK_IsHalted()
T632C 000:384.719 - 0.004ms returns TRUE
T632C 000:384.752 JLINK_ReadMemU32(0xE000EDF0, 0x1 Items)
T632C 000:384.769   CPU_ReadMem(4 bytes @ 0xE000EDF0)
T632C 000:385.055   Data:  03 00 03 00
T632C 000:385.067   Debug reg: DHCSR
T632C 000:385.072 - 0.320ms returns 1 (0x1)
T632C 000:385.089 JLINK_WriteU32(0xE000EDF0, 0xA05F0003)
T632C 000:385.093   Debug reg: DHCSR
T632C 000:385.475   CPU_WriteMem(4 bytes @ 0xE000EDF0)
T632C 000:385.791 - 0.707ms returns 0 (0x00000000)
T632C 000:385.804 JLINK_WriteU32(0xE000EDFC, 0x01000000)
T632C 000:385.808   Debug reg: DEMCR
T632C 000:385.818   CPU_WriteMem(4 bytes @ 0xE000EDFC)
T632C 000:386.063 - 0.259ms returns 0 (0x00000000)
T632C 000:386.818 JLINK_GetHWStatus(...)
T632C 000:386.951 - 0.132ms returns 0
T632C 000:387.383 JLINK_GetNumBPUnits(Type = 0xFFFFFF00)
T632C 000:387.388 - 0.005ms returns 0x06
T632C 000:387.393 JLINK_GetNumBPUnits(Type = 0xF0)
T632C 000:387.396 - 0.003ms returns 0x2000
T632C 000:387.400 JLINK_GetNumWPUnits()
T632C 000:387.405 - 0.004ms returns 4
T632C 000:387.785 JLINK_GetSpeed()
T632C 000:387.789 - 0.004ms returns 4000
T632C 000:388.025 JLINK_ReadMemU32(0xE000E004, 0x1 Items)
T632C 000:388.033   CPU_ReadMem(4 bytes @ 0xE000E004)
T632C 000:388.280   Data:  01 00 00 00
T632C 000:388.293 - 0.268ms returns 1 (0x1)
T632C 000:388.300 JLINK_ReadMemU32(0xE000E004, 0x1 Items)
T632C 000:388.307   CPU_ReadMem(4 bytes @ 0xE000E004)
T632C 000:388.684   Data:  01 00 00 00
T632C 000:388.692 - 0.391ms returns 1 (0x1)
T632C 000:388.698 JLINK_WriteMem(0xE0001000, 0x1C Bytes, ...)
T632C 000:388.702   Data:  01 00 00 00 00 00 00 00 00 00 00 00 00 00 00 00 ...
T632C 000:388.711   CPU_WriteMem(28 bytes @ 0xE0001000)
T632C 000:389.068 - 0.370ms returns 0x1C
T632C 000:389.074 JLINK_ReadMem(0xE0001000, 0x1C Bytes, ...)
T632C 000:389.079   CPU_ReadMem(28 bytes @ 0xE0001000)
T632C 000:389.596   Data:  01 00 00 40 00 00 00 00 00 00 00 00 00 00 00 00 ...
T632C 000:389.602 - 0.528ms returns 0
T632C 000:389.610 JLINK_Halt()
T632C 000:389.614 - 0.003ms returns 0x00
T632C 000:389.618 JLINK_IsHalted()
T632C 000:389.622 - 0.004ms returns TRUE
T632C 000:391.278 JLINK_WriteMem(0x20000000, 0x164 Bytes, ...)
T632C 000:391.286   Data:  00 BE 0A E0 0D 78 2D 06 68 40 08 24 40 00 00 D3 ...
T632C 000:391.772   CPU_WriteMem(356 bytes @ 0x20000000)
T632C 000:393.730 - 2.451ms returns 0x164
T632C 000:393.767 JLINK_HasError()
T632C 000:393.773 JLINK_WriteReg(R0, 0x08000000)
T632C 000:393.779 - 0.005ms returns 0
T632C 000:393.783 JLINK_WriteReg(R1, 0x007A1200)
T632C 000:393.787 - 0.003ms returns 0
T632C 000:393.791 JLINK_WriteReg(R2, 0x00000001)
T632C 000:393.794 - 0.003ms returns 0
T632C 000:393.798 JLINK_WriteReg(R3, 0x00000000)
T632C 000:393.802 - 0.003ms returns 0
T632C 000:393.806 JLINK_WriteReg(R4, 0x00000000)
T632C 000:393.810 - 0.003ms returns 0
T632C 000:393.814 JLINK_WriteReg(R5, 0x00000000)
T632C 000:393.817 - 0.003ms returns 0
T632C 000:393.821 JLINK_WriteReg(R6, 0x00000000)
T632C 000:393.825 - 0.003ms returns 0
T632C 000:393.829 JLINK_WriteReg(R7, 0x00000000)
T632C 000:393.832 - 0.003ms returns 0
T632C 000:393.849 JLINK_WriteReg(R8, 0x00000000)
T632C 000:393.853 - 0.016ms returns 0
T632C 000:393.857 JLINK_WriteReg(R9, 0x20000160)
T632C 000:393.863 - 0.005ms returns 0
T632C 000:393.868 JLINK_WriteReg(R10, 0x00000000)
T632C 000:393.872 - 0.003ms returns 0
T632C 000:393.876 JLINK_WriteReg(R11, 0x00000000)
T632C 000:393.880 - 0.003ms returns 0
T632C 000:393.884 JLINK_WriteReg(R12, 0x00000000)
T632C 000:393.887 - 0.003ms returns 0
T632C 000:393.892 JLINK_WriteReg(R13 (SP), 0x20001000)
T632C 000:393.896 - 0.004ms returns 0
T632C 000:393.900 JLINK_WriteReg(R14, 0x20000001)
T632C 000:393.904 - 0.003ms returns 0
T632C 000:393.912 JLINK_WriteReg(R15 (PC), 0x20000038)
T632C 000:393.915 - 0.007ms returns 0
T632C 000:393.919 JLINK_WriteReg(XPSR, 0x01000000)
T632C 000:393.923 - 0.003ms returns 0
T632C 000:393.927 JLINK_WriteReg(MSP, 0x20001000)
T632C 000:393.931 - 0.003ms returns 0
T632C 000:393.935 JLINK_WriteReg(PSP, 0x20001000)
T632C 000:393.938 - 0.003ms returns 0
T632C 000:393.943 JLINK_WriteReg(CFBP, 0x00000000)
T632C 000:393.946 - 0.003ms returns 0
T632C 000:393.951 JLINK_SetBPEx(Addr = 0x20000000, Type = 0xFFFFFFF2)
T632C 000:393.958   CPU_ReadMem(2 bytes @ 0x20000000)
T632C 000:394.237 - 0.286ms returns 0x00000001
T632C 000:394.242 JLINK_Go()
T632C 000:394.248   CPU_WriteMem(2 bytes @ 0x20000000)
T632C 000:394.485   CPU_ReadMem(4 bytes @ 0xE0001000)
T632C 000:394.847   CPU_WriteMem(4 bytes @ 0xE0002008)
T632C 000:394.854   CPU_WriteMem(4 bytes @ 0xE000200C)
T632C 000:394.859   CPU_WriteMem(4 bytes @ 0xE0002010)
T632C 000:394.864   CPU_WriteMem(4 bytes @ 0xE0002014)
T632C 000:394.869   CPU_WriteMem(4 bytes @ 0xE0002018)
T632C 000:394.874   CPU_WriteMem(4 bytes @ 0xE000201C)
T632C 000:395.977   CPU_WriteMem(4 bytes @ 0xE0001004)
T632C 000:400.154   Memory map 'after startup completion point' is active
T632C 000:400.163 - 5.920ms 
T632C 000:400.170 JLINK_IsHalted()
T632C 000:402.856   CPU_ReadMem(2 bytes @ 0x20000000)
T632C 000:403.245 - 3.074ms returns TRUE
T632C 000:403.261 JLINK_ReadReg(R15 (PC))
T632C 000:403.268 - 0.007ms returns 0x20000000
T632C 000:403.272 JLINK_ClrBPEx(BPHandle = 0x00000001)
T632C 000:403.277 - 0.004ms returns 0x00
T632C 000:403.282 JLINK_ReadReg(R0)
T632C 000:403.285 - 0.003ms returns 0x00000000
T632C 000:403.307 JLINK_HasError()
T632C 000:403.313 JLINK_WriteReg(R0, 0x08000000)
T632C 000:403.317 - 0.004ms returns 0
T632C 000:403.321 JLINK_WriteReg(R1, 0x007A1200)
T632C 000:403.325 - 0.004ms returns 0
T632C 000:403.330 JLINK_WriteReg(R2, 0x00000001)
T632C 000:403.333 - 0.003ms returns 0
T632C 000:403.337 JLINK_WriteReg(R3, 0x00000000)
T632C 000:403.341 - 0.003ms returns 0
T632C 000:403.345 JLINK_WriteReg(R4, 0x00000000)
T632C 000:403.348 - 0.003ms returns 0
T632C 000:403.352 JLINK_WriteReg(R5, 0x00000000)
T632C 000:403.356 - 0.003ms returns 0
T632C 000:403.360 JLINK_WriteReg(R6, 0x00000000)
T632C 000:403.364 - 0.003ms returns 0
T632C 000:403.368 JLINK_WriteReg(R7, 0x00000000)
T632C 000:403.371 - 0.003ms returns 0
T632C 000:403.375 JLINK_WriteReg(R8, 0x00000000)
T632C 000:403.379 - 0.003ms returns 0
T632C 000:403.383 JLINK_WriteReg(R9, 0x20000160)
T632C 000:403.387 - 0.003ms returns 0
T632C 000:403.391 JLINK_WriteReg(R10, 0x00000000)
T632C 000:403.394 - 0.003ms returns 0
T632C 000:403.398 JLINK_WriteReg(R11, 0x00000000)
T632C 000:403.402 - 0.003ms returns 0
T632C 000:403.406 JLINK_WriteReg(R12, 0x00000000)
T632C 000:403.410 - 0.003ms returns 0
T632C 000:403.414 JLINK_WriteReg(R13 (SP), 0x20001000)
T632C 000:403.418 - 0.004ms returns 0
T632C 000:403.422 JLINK_WriteReg(R14, 0x20000001)
T632C 000:403.426 - 0.003ms returns 0
T632C 000:403.430 JLINK_WriteReg(R15 (PC), 0x2000007C)
T632C 000:403.433 - 0.003ms returns 0
T632C 000:403.438 JLINK_WriteReg(XPSR, 0x01000000)
T632C 000:403.441 - 0.003ms returns 0
T632C 000:403.445 JLINK_WriteReg(MSP, 0x20001000)
T632C 000:403.449 - 0.003ms returns 0
T632C 000:403.453 JLINK_WriteReg(PSP, 0x20001000)
T632C 000:403.456 - 0.003ms returns 0
T632C 000:403.461 JLINK_WriteReg(CFBP, 0x00000000)
T632C 000:403.464 - 0.003ms returns 0
T632C 000:403.469 JLINK_SetBPEx(Addr = 0x20000000, Type = 0xFFFFFFF2)
T632C 000:403.517 - 0.048ms returns 0x00000002
T632C 000:403.524 JLINK_Go()
T632C 000:403.534   CPU_ReadMem(4 bytes @ 0xE0001000)
T632C 000:406.303 - 2.778ms 
T632C 000:406.322 JLINK_IsHalted()
T632C 000:406.580 - 0.257ms returns FALSE
T632C 000:406.595 JLINK_HasError()
T632C 000:409.902 JLINK_IsHalted()
T632C 000:410.256 - 0.353ms returns FALSE
T632C 000:410.272 JLINK_HasError()
T632C 000:412.913 JLINK_IsHalted()
T632C 000:413.240 - 0.326ms returns FALSE
T632C 000:413.255 JLINK_HasError()
T632C 000:430.543 JLINK_IsHalted()
T632C 000:433.213   CPU_ReadMem(2 bytes @ 0x20000000)
T632C 000:433.526 - 2.982ms returns TRUE
T632C 000:433.541 JLINK_ReadReg(R15 (PC))
T632C 000:433.548 - 0.006ms returns 0x20000000
T632C 000:433.552 JLINK_ClrBPEx(BPHandle = 0x00000002)
T632C 000:433.557 - 0.004ms returns 0x00
T632C 000:433.561 JLINK_ReadReg(R0)
T632C 000:433.565 - 0.003ms returns 0x00000000
T632C 000:484.551 JLINK_HasError()
T632C 000:484.577 JLINK_WriteReg(R0, 0x00000001)
T632C 000:484.584 - 0.007ms returns 0
T632C 000:484.589 JLINK_WriteReg(R1, 0x007A1200)
T632C 000:484.592 - 0.003ms returns 0
T632C 000:484.597 JLINK_WriteReg(R2, 0x00000001)
T632C 000:484.600 - 0.003ms returns 0
T632C 000:484.605 JLINK_WriteReg(R3, 0x00000000)
T632C 000:484.608 - 0.003ms returns 0
T632C 000:484.612 JLINK_WriteReg(R4, 0x00000000)
T632C 000:484.616 - 0.003ms returns 0
T632C 000:484.620 JLINK_WriteReg(R5, 0x00000000)
T632C 000:484.624 - 0.003ms returns 0
T632C 000:484.628 JLINK_WriteReg(R6, 0x00000000)
T632C 000:484.632 - 0.004ms returns 0
T632C 000:484.636 JLINK_WriteReg(R7, 0x00000000)
T632C 000:484.639 - 0.003ms returns 0
T632C 000:484.644 JLINK_WriteReg(R8, 0x00000000)
T632C 000:484.647 - 0.003ms returns 0
T632C 000:484.651 JLINK_WriteReg(R9, 0x20000160)
T632C 000:484.655 - 0.003ms returns 0
T632C 000:484.659 JLINK_WriteReg(R10, 0x00000000)
T632C 000:484.663 - 0.003ms returns 0
T632C 000:484.667 JLINK_WriteReg(R11, 0x00000000)
T632C 000:484.670 - 0.003ms returns 0
T632C 000:484.674 JLINK_WriteReg(R12, 0x00000000)
T632C 000:484.678 - 0.003ms returns 0
T632C 000:484.682 JLINK_WriteReg(R13 (SP), 0x20001000)
T632C 000:484.686 - 0.004ms returns 0
T632C 000:484.690 JLINK_WriteReg(R14, 0x20000001)
T632C 000:484.694 - 0.003ms returns 0
T632C 000:484.698 JLINK_WriteReg(R15 (PC), 0x2000006A)
T632C 000:484.702 - 0.003ms returns 0
T632C 000:484.706 JLINK_WriteReg(XPSR, 0x01000000)
T632C 000:484.709 - 0.003ms returns 0
T632C 000:484.713 JLINK_WriteReg(MSP, 0x20001000)
T632C 000:484.717 - 0.003ms returns 0
T632C 000:484.721 JLINK_WriteReg(PSP, 0x20001000)
T632C 000:484.725 - 0.003ms returns 0
T632C 000:484.729 JLINK_WriteReg(CFBP, 0x00000000)
T632C 000:484.732 - 0.003ms returns 0
T632C 000:484.737 JLINK_SetBPEx(Addr = 0x20000000, Type = 0xFFFFFFF2)
T632C 000:484.742 - 0.005ms returns 0x00000003
T632C 000:484.746 JLINK_Go()
T632C 000:484.761   CPU_ReadMem(4 bytes @ 0xE0001000)
T632C 000:487.324 - 2.577ms 
T632C 000:487.347 JLINK_IsHalted()
T632C 000:490.124   CPU_ReadMem(2 bytes @ 0x20000000)
T632C 000:490.517 - 3.170ms returns TRUE
T632C 000:490.532 JLINK_ReadReg(R15 (PC))
T632C 000:490.538 - 0.006ms returns 0x20000000
T632C 000:490.545 JLINK_ClrBPEx(BPHandle = 0x00000003)
T632C 000:490.549 - 0.004ms returns 0x00
T632C 000:490.584 JLINK_ReadReg(R0)
T632C 000:490.589 - 0.004ms returns 0x00000000
T632C 000:494.254 JLINK_WriteMem(0x20000000, 0x164 Bytes, ...)
T632C 000:494.264   Data:  00 BE 0A E0 0D 78 2D 06 68 40 08 24 40 00 00 D3 ...
T632C 000:494.280   CPU_WriteMem(356 bytes @ 0x20000000)
T632C 000:496.280 - 2.025ms returns 0x164
T632C 000:496.315 JLINK_HasError()
T632C 000:496.320 JLINK_WriteReg(R0, 0x08000000)
T632C 000:496.326 - 0.005ms returns 0
T632C 000:496.330 JLINK_WriteReg(R1, 0x007A1200)
T632C 000:496.334 - 0.003ms returns 0
T632C 000:496.338 JLINK_WriteReg(R2, 0x00000002)
T632C 000:496.342 - 0.003ms returns 0
T632C 000:496.346 JLINK_WriteReg(R3, 0x00000000)
T632C 000:496.350 - 0.003ms returns 0
T632C 000:496.354 JLINK_WriteReg(R4, 0x00000000)
T632C 000:496.357 - 0.003ms returns 0
T632C 000:496.365 JLINK_WriteReg(R5, 0x00000000)
T632C 000:496.369 - 0.003ms returns 0
T632C 000:496.373 JLINK_WriteReg(R6, 0x00000000)
T632C 000:496.377 - 0.003ms returns 0
T632C 000:496.381 JLINK_WriteReg(R7, 0x00000000)
T632C 000:496.384 - 0.003ms returns 0
T632C 000:496.388 JLINK_WriteReg(R8, 0x00000000)
T632C 000:496.392 - 0.003ms returns 0
T632C 000:496.396 JLINK_WriteReg(R9, 0x20000160)
T632C 000:496.399 - 0.003ms returns 0
T632C 000:496.404 JLINK_WriteReg(R10, 0x00000000)
T632C 000:496.407 - 0.003ms returns 0
T632C 000:496.411 JLINK_WriteReg(R11, 0x00000000)
T632C 000:496.415 - 0.003ms returns 0
T632C 000:496.419 JLINK_WriteReg(R12, 0x00000000)
T632C 000:496.422 - 0.003ms returns 0
T632C 000:496.426 JLINK_WriteReg(R13 (SP), 0x20001000)
T632C 000:496.431 - 0.004ms returns 0
T632C 000:496.435 JLINK_WriteReg(R14, 0x20000001)
T632C 000:496.438 - 0.003ms returns 0
T632C 000:496.442 JLINK_WriteReg(R15 (PC), 0x20000038)
T632C 000:496.446 - 0.003ms returns 0
T632C 000:496.450 JLINK_WriteReg(XPSR, 0x01000000)
T632C 000:496.454 - 0.003ms returns 0
T632C 000:496.458 JLINK_WriteReg(MSP, 0x20001000)
T632C 000:496.461 - 0.003ms returns 0
T632C 000:496.466 JLINK_WriteReg(PSP, 0x20001000)
T632C 000:496.469 - 0.003ms returns 0
T632C 000:496.473 JLINK_WriteReg(CFBP, 0x00000000)
T632C 000:496.477 - 0.003ms returns 0
T632C 000:496.481 JLINK_SetBPEx(Addr = 0x20000000, Type = 0xFFFFFFF2)
T632C 000:496.489   CPU_ReadMem(2 bytes @ 0x20000000)
T632C 000:496.802 - 0.321ms returns 0x00000004
T632C 000:496.809 JLINK_Go()
T632C 000:496.815   CPU_WriteMem(2 bytes @ 0x20000000)
T632C 000:497.100   CPU_ReadMem(4 bytes @ 0xE0001000)
T632C 000:499.912 - 3.103ms 
T632C 000:499.928 JLINK_IsHalted()
T632C 000:502.704   CPU_ReadMem(2 bytes @ 0x20000000)
T632C 000:502.996 - 3.067ms returns TRUE
T632C 000:503.005 JLINK_ReadReg(R15 (PC))
T632C 000:503.011 - 0.006ms returns 0x20000000
T632C 000:503.016 JLINK_ClrBPEx(BPHandle = 0x00000004)
T632C 000:503.020 - 0.004ms returns 0x00
T632C 000:503.024 JLINK_ReadReg(R0)
T632C 000:503.028 - 0.003ms returns 0x00000000
T632C 000:503.197 JLINK_WriteMem(0x20000164, 0x400 Bytes, ...)
T632C 000:503.202   Data:  70 9B 00 20 49 01 00 08 87 1C 00 08 7D 19 00 08 ...
T632C 000:503.218   CPU_WriteMem(1024 bytes @ 0x20000164)
T632C 000:507.810 - 4.611ms returns 0x400
T632C 000:507.834 JLINK_HasError()
T632C 000:507.840 JLINK_WriteReg(R0, 0x08000000)
T632C 000:507.849 - 0.008ms returns 0
T632C 000:507.853 JLINK_WriteReg(R1, 0x00000400)
T632C 000:507.857 - 0.003ms returns 0
T632C 000:507.861 JLINK_WriteReg(R2, 0x20000164)
T632C 000:507.864 - 0.003ms returns 0
T632C 000:507.868 JLINK_WriteReg(R3, 0x00000000)
T632C 000:507.872 - 0.003ms returns 0
T632C 000:507.876 JLINK_WriteReg(R4, 0x00000000)
T632C 000:507.880 - 0.003ms returns 0
T632C 000:507.884 JLINK_WriteReg(R5, 0x00000000)
T632C 000:507.887 - 0.003ms returns 0
T632C 000:507.891 JLINK_WriteReg(R6, 0x00000000)
T632C 000:507.895 - 0.003ms returns 0
T632C 000:507.899 JLINK_WriteReg(R7, 0x00000000)
T632C 000:507.903 - 0.003ms returns 0
T632C 000:507.907 JLINK_WriteReg(R8, 0x00000000)
T632C 000:507.910 - 0.003ms returns 0
T632C 000:507.914 JLINK_WriteReg(R9, 0x20000160)
T632C 000:507.918 - 0.003ms returns 0
T632C 000:507.922 JLINK_WriteReg(R10, 0x00000000)
T632C 000:507.925 - 0.003ms returns 0
T632C 000:507.930 JLINK_WriteReg(R11, 0x00000000)
T632C 000:507.934 - 0.003ms returns 0
T632C 000:507.938 JLINK_WriteReg(R12, 0x00000000)
T632C 000:507.941 - 0.003ms returns 0
T632C 000:507.945 JLINK_WriteReg(R13 (SP), 0x20001000)
T632C 000:507.950 - 0.004ms returns 0
T632C 000:507.954 JLINK_WriteReg(R14, 0x20000001)
T632C 000:507.957 - 0.003ms returns 0
T632C 000:507.962 JLINK_WriteReg(R15 (PC), 0x200000F4)
T632C 000:507.965 - 0.003ms returns 0
T632C 000:507.969 JLINK_WriteReg(XPSR, 0x01000000)
T632C 000:507.973 - 0.003ms returns 0
T632C 000:507.977 JLINK_WriteReg(MSP, 0x20001000)
T632C 000:507.981 - 0.003ms returns 0
T632C 000:507.985 JLINK_WriteReg(PSP, 0x20001000)
T632C 000:507.988 - 0.003ms returns 0
T632C 000:507.997 JLINK_WriteReg(CFBP, 0x00000000)
T632C 000:508.001 - 0.003ms returns 0
T632C 000:508.006 JLINK_SetBPEx(Addr = 0x20000000, Type = 0xFFFFFFF2)
T632C 000:508.011 - 0.005ms returns 0x00000005
T632C 000:508.015 JLINK_Go()
T632C 000:508.027   CPU_ReadMem(4 bytes @ 0xE0001000)
T632C 000:510.751 - 2.734ms 
T632C 000:510.793 JLINK_IsHalted()
T632C 000:511.021 - 0.227ms returns FALSE
T632C 000:511.030 JLINK_HasError()
T632C 000:512.751 JLINK_IsHalted()
T632C 000:513.030 - 0.278ms returns FALSE
T632C 000:513.040 JLINK_HasError()
T632C 000:514.744 JLINK_IsHalted()
T632C 000:515.037 - 0.293ms returns FALSE
T632C 000:515.044 JLINK_HasError()
T632C 000:516.781 JLINK_IsHalted()
T632C 000:517.084 - 0.302ms returns FALSE
T632C 000:517.097 JLINK_HasError()
T632C 000:518.844 JLINK_IsHalted()
T632C 000:519.159 - 0.314ms returns FALSE
T632C 000:519.175 JLINK_HasError()
T632C 000:520.824 JLINK_IsHalted()
T632C 000:521.133 - 0.308ms returns FALSE
T632C 000:521.145 JLINK_HasError()
T632C 000:522.287 JLINK_IsHalted()
T632C 000:522.566 - 0.278ms returns FALSE
T632C 000:522.572 JLINK_HasError()
T632C 000:524.293 JLINK_IsHalted()
T632C 000:524.647 - 0.353ms returns FALSE
T632C 000:524.661 JLINK_HasError()
T632C 000:525.811 JLINK_IsHalted()
T632C 000:526.129 - 0.317ms returns FALSE
T632C 000:526.143 JLINK_HasError()
T632C 000:527.807 JLINK_IsHalted()
T632C 000:528.142 - 0.334ms returns FALSE
T632C 000:528.154 JLINK_HasError()
T632C 000:530.094 JLINK_IsHalted()
T632C 000:530.479 - 0.385ms returns FALSE
T632C 000:530.493 JLINK_HasError()
T632C 000:532.087 JLINK_IsHalted()
T632C 000:532.474 - 0.386ms returns FALSE
T632C 000:532.488 JLINK_HasError()
T632C 000:534.085 JLINK_IsHalted()
T632C 000:534.471 - 0.386ms returns FALSE
T632C 000:534.480 JLINK_HasError()
T632C 000:536.635 JLINK_IsHalted()
T632C 000:536.949 - 0.313ms returns FALSE
T632C 000:536.964 JLINK_HasError()
T632C 000:538.673 JLINK_IsHalted()
T632C 000:538.961 - 0.287ms returns FALSE
T632C 000:538.971 JLINK_HasError()
T632C 000:540.692 JLINK_IsHalted()
T632C 000:541.039 - 0.347ms returns FALSE
T632C 000:541.045 JLINK_HasError()
T632C 000:542.627 JLINK_IsHalted()
T632C 000:545.202   CPU_ReadMem(2 bytes @ 0x20000000)
T632C 000:545.516 - 2.888ms returns TRUE
T632C 000:545.528 JLINK_ReadReg(R15 (PC))
T632C 000:545.535 - 0.007ms returns 0x20000000
T632C 000:545.540 JLINK_ClrBPEx(BPHandle = 0x00000005)
T632C 000:545.544 - 0.004ms returns 0x00
T632C 000:545.549 JLINK_ReadReg(R0)
T632C 000:545.553 - 0.004ms returns 0x00000000
T632C 000:545.585 JLINK_WriteMem(0x20000164, 0x400 Bytes, ...)
T632C 000:545.589   Data:  38 B5 05 46 14 48 0C 46 C1 69 41 F0 80 51 C1 61 ...
T632C 000:545.599   CPU_WriteMem(1024 bytes @ 0x20000164)
T632C 000:550.167 - 4.581ms returns 0x400
T632C 000:550.197 JLINK_HasError()
T632C 000:550.204 JLINK_WriteReg(R0, 0x08000400)
T632C 000:550.212 - 0.008ms returns 0
T632C 000:550.217 JLINK_WriteReg(R1, 0x00000400)
T632C 000:550.220 - 0.003ms returns 0
T632C 000:550.225 JLINK_WriteReg(R2, 0x20000164)
T632C 000:550.228 - 0.003ms returns 0
T632C 000:550.232 JLINK_WriteReg(R3, 0x00000000)
T632C 000:550.236 - 0.003ms returns 0
T632C 000:550.240 JLINK_WriteReg(R4, 0x00000000)
T632C 000:550.244 - 0.003ms returns 0
T632C 000:550.248 JLINK_WriteReg(R5, 0x00000000)
T632C 000:550.252 - 0.003ms returns 0
T632C 000:550.256 JLINK_WriteReg(R6, 0x00000000)
T632C 000:550.259 - 0.003ms returns 0
T632C 000:550.264 JLINK_WriteReg(R7, 0x00000000)
T632C 000:550.268 - 0.003ms returns 0
T632C 000:550.272 JLINK_WriteReg(R8, 0x00000000)
T632C 000:550.275 - 0.003ms returns 0
T632C 000:550.280 JLINK_WriteReg(R9, 0x20000160)
T632C 000:550.283 - 0.003ms returns 0
T632C 000:550.287 JLINK_WriteReg(R10, 0x00000000)
T632C 000:550.291 - 0.003ms returns 0
T632C 000:550.295 JLINK_WriteReg(R11, 0x00000000)
T632C 000:550.299 - 0.003ms returns 0
T632C 000:550.303 JLINK_WriteReg(R12, 0x00000000)
T632C 000:550.306 - 0.003ms returns 0
T632C 000:550.310 JLINK_WriteReg(R13 (SP), 0x20001000)
T632C 000:550.319 - 0.008ms returns 0
T632C 000:550.326 JLINK_WriteReg(R14, 0x20000001)
T632C 000:550.330 - 0.003ms returns 0
T632C 000:550.334 JLINK_WriteReg(R15 (PC), 0x200000F4)
T632C 000:550.338 - 0.003ms returns 0
T632C 000:550.342 JLINK_WriteReg(XPSR, 0x01000000)
T632C 000:550.346 - 0.003ms returns 0
T632C 000:550.350 JLINK_WriteReg(MSP, 0x20001000)
T632C 000:550.353 - 0.003ms returns 0
T632C 000:550.357 JLINK_WriteReg(PSP, 0x20001000)
T632C 000:550.361 - 0.003ms returns 0
T632C 000:550.365 JLINK_WriteReg(CFBP, 0x00000000)
T632C 000:550.369 - 0.003ms returns 0
T632C 000:550.374 JLINK_SetBPEx(Addr = 0x20000000, Type = 0xFFFFFFF2)
T632C 000:550.378 - 0.005ms returns 0x00000006
T632C 000:550.383 JLINK_Go()
T632C 000:550.394   CPU_ReadMem(4 bytes @ 0xE0001000)
T632C 000:553.000 - 2.616ms 
T632C 000:553.017 JLINK_IsHalted()
T632C 000:553.290 - 0.272ms returns FALSE
T632C 000:553.304 JLINK_HasError()
T632C 000:555.860 JLINK_IsHalted()
T632C 000:556.174 - 0.313ms returns FALSE
T632C 000:556.188 JLINK_HasError()
T632C 000:557.828 JLINK_IsHalted()
T632C 000:558.123 - 0.295ms returns FALSE
T632C 000:558.136 JLINK_HasError()
T632C 000:559.796 JLINK_IsHalted()
T632C 000:560.066 - 0.268ms returns FALSE
T632C 000:560.077 JLINK_HasError()
T632C 000:561.842 JLINK_IsHalted()
T632C 000:562.164 - 0.322ms returns FALSE
T632C 000:562.172 JLINK_HasError()
T632C 000:563.912 JLINK_IsHalted()
T632C 000:564.223 - 0.310ms returns FALSE
T632C 000:564.231 JLINK_HasError()
T632C 000:565.838 JLINK_IsHalted()
T632C 000:566.122 - 0.283ms returns FALSE
T632C 000:566.131 JLINK_HasError()
T632C 000:567.348 JLINK_IsHalted()
T632C 000:567.674 - 0.324ms returns FALSE
T632C 000:567.695 JLINK_HasError()
T632C 000:569.378 JLINK_IsHalted()
T632C 000:569.682 - 0.303ms returns FALSE
T632C 000:569.694 JLINK_HasError()
T632C 000:571.342 JLINK_IsHalted()
T632C 000:571.668 - 0.325ms returns FALSE
T632C 000:571.675 JLINK_HasError()
T632C 000:573.345 JLINK_IsHalted()
T632C 000:573.672 - 0.327ms returns FALSE
T632C 000:573.683 JLINK_HasError()
T632C 000:575.893 JLINK_IsHalted()
T632C 000:576.190 - 0.296ms returns FALSE
T632C 000:576.203 JLINK_HasError()
T632C 000:577.882 JLINK_IsHalted()
T632C 000:578.186 - 0.304ms returns FALSE
T632C 000:578.194 JLINK_HasError()
T632C 000:579.857 JLINK_IsHalted()
T632C 000:580.182 - 0.324ms returns FALSE
T632C 000:580.191 JLINK_HasError()
T632C 000:581.848 JLINK_IsHalted()
T632C 000:582.130 - 0.281ms returns FALSE
T632C 000:582.136 JLINK_HasError()
T632C 000:583.888 JLINK_IsHalted()
T632C 000:586.423   CPU_ReadMem(2 bytes @ 0x20000000)
T632C 000:586.726 - 2.837ms returns TRUE
T632C 000:586.740 JLINK_ReadReg(R15 (PC))
T632C 000:586.747 - 0.006ms returns 0x20000000
T632C 000:586.752 JLINK_ClrBPEx(BPHandle = 0x00000006)
T632C 000:586.756 - 0.004ms returns 0x00
T632C 000:586.761 JLINK_ReadReg(R0)
T632C 000:586.765 - 0.004ms returns 0x00000000
T632C 000:586.799 JLINK_WriteMem(0x20000164, 0x400 Bytes, ...)
T632C 000:586.803   Data:  05 68 2C 68 02 F0 10 03 40 F6 FE 72 9A 40 94 43 ...
T632C 000:586.813   CPU_WriteMem(1024 bytes @ 0x20000164)
T632C 000:591.400 - 4.601ms returns 0x400
T632C 000:591.588 JLINK_HasError()
T632C 000:591.604 JLINK_WriteReg(R0, 0x08000800)
T632C 000:591.635 - 0.030ms returns 0
T632C 000:591.640 JLINK_WriteReg(R1, 0x00000400)
T632C 000:591.644 - 0.003ms returns 0
T632C 000:591.648 JLINK_WriteReg(R2, 0x20000164)
T632C 000:591.652 - 0.003ms returns 0
T632C 000:591.656 JLINK_WriteReg(R3, 0x00000000)
T632C 000:591.659 - 0.003ms returns 0
T632C 000:591.663 JLINK_WriteReg(R4, 0x00000000)
T632C 000:591.667 - 0.004ms returns 0
T632C 000:591.671 JLINK_WriteReg(R5, 0x00000000)
T632C 000:591.675 - 0.003ms returns 0
T632C 000:591.679 JLINK_WriteReg(R6, 0x00000000)
T632C 000:591.682 - 0.003ms returns 0
T632C 000:591.687 JLINK_WriteReg(R7, 0x00000000)
T632C 000:591.690 - 0.003ms returns 0
T632C 000:591.694 JLINK_WriteReg(R8, 0x00000000)
T632C 000:591.698 - 0.003ms returns 0
T632C 000:591.702 JLINK_WriteReg(R9, 0x20000160)
T632C 000:591.705 - 0.003ms returns 0
T632C 000:591.759 JLINK_WriteReg(R10, 0x00000000)
T632C 000:591.763 - 0.003ms returns 0
T632C 000:591.767 JLINK_WriteReg(R11, 0x00000000)
T632C 000:591.771 - 0.003ms returns 0
T632C 000:591.775 JLINK_WriteReg(R12, 0x00000000)
T632C 000:591.778 - 0.003ms returns 0
T632C 000:591.783 JLINK_WriteReg(R13 (SP), 0x20001000)
T632C 000:591.787 - 0.004ms returns 0
T632C 000:591.791 JLINK_WriteReg(R14, 0x20000001)
T632C 000:591.795 - 0.003ms returns 0
T632C 000:591.799 JLINK_WriteReg(R15 (PC), 0x200000F4)
T632C 000:591.803 - 0.003ms returns 0
T632C 000:591.807 JLINK_WriteReg(XPSR, 0x01000000)
T632C 000:591.811 - 0.003ms returns 0
T632C 000:591.815 JLINK_WriteReg(MSP, 0x20001000)
T632C 000:591.818 - 0.003ms returns 0
T632C 000:591.822 JLINK_WriteReg(PSP, 0x20001000)
T632C 000:591.826 - 0.003ms returns 0
T632C 000:591.830 JLINK_WriteReg(CFBP, 0x00000000)
T632C 000:591.834 - 0.003ms returns 0
T632C 000:591.839 JLINK_SetBPEx(Addr = 0x20000000, Type = 0xFFFFFFF2)
T632C 000:591.844 - 0.005ms returns 0x00000007
T632C 000:591.848 JLINK_Go()
T632C 000:591.861   CPU_ReadMem(4 bytes @ 0xE0001000)
T632C 000:594.531 - 2.682ms 
T632C 000:594.552 JLINK_IsHalted()
T632C 000:594.855 - 0.302ms returns FALSE
T632C 000:594.873 JLINK_HasError()
T632C 000:596.443 JLINK_IsHalted()
T632C 000:596.778 - 0.335ms returns FALSE
T632C 000:596.808 JLINK_HasError()
T632C 000:598.509 JLINK_IsHalted()
T632C 000:598.831 - 0.321ms returns FALSE
T632C 000:598.847 JLINK_HasError()
T632C 000:600.451 JLINK_IsHalted()
T632C 000:600.726 - 0.274ms returns FALSE
T632C 000:600.738 JLINK_HasError()
T632C 000:602.450 JLINK_IsHalted()
T632C 000:602.827 - 0.376ms returns FALSE
T632C 000:602.835 JLINK_HasError()
T632C 000:604.452 JLINK_IsHalted()
T632C 000:604.731 - 0.279ms returns FALSE
T632C 000:604.746 JLINK_HasError()
T632C 000:605.993 JLINK_IsHalted()
T632C 000:606.257 - 0.263ms returns FALSE
T632C 000:606.264 JLINK_HasError()
T632C 000:607.974 JLINK_IsHalted()
T632C 000:608.284 - 0.309ms returns FALSE
T632C 000:608.297 JLINK_HasError()
T632C 000:609.988 JLINK_IsHalted()
T632C 000:610.286 - 0.296ms returns FALSE
T632C 000:610.312 JLINK_HasError()
T632C 000:612.015 JLINK_IsHalted()
T632C 000:612.324 - 0.308ms returns FALSE
T632C 000:612.333 JLINK_HasError()
T632C 000:613.976 JLINK_IsHalted()
T632C 000:614.257 - 0.280ms returns FALSE
T632C 000:614.263 JLINK_HasError()
T632C 000:615.517 JLINK_IsHalted()
T632C 000:615.840 - 0.323ms returns FALSE
T632C 000:615.854 JLINK_HasError()
T632C 000:617.487 JLINK_IsHalted()
T632C 000:617.803 - 0.315ms returns FALSE
T632C 000:617.816 JLINK_HasError()
T632C 000:619.523 JLINK_IsHalted()
T632C 000:619.831 - 0.308ms returns FALSE
T632C 000:619.848 JLINK_HasError()
T632C 000:621.485 JLINK_IsHalted()
T632C 000:621.798 - 0.312ms returns FALSE
T632C 000:621.807 JLINK_HasError()
T632C 000:623.899 JLINK_IsHalted()
T632C 000:624.211 - 0.311ms returns FALSE
T632C 000:624.223 JLINK_HasError()
T632C 000:625.865 JLINK_IsHalted()
T632C 000:628.602   CPU_ReadMem(2 bytes @ 0x20000000)
T632C 000:628.912 - 3.047ms returns TRUE
T632C 000:628.922 JLINK_ReadReg(R15 (PC))
T632C 000:628.930 - 0.007ms returns 0x20000000
T632C 000:628.935 JLINK_ClrBPEx(BPHandle = 0x00000007)
T632C 000:628.939 - 0.004ms returns 0x00
T632C 000:628.943 JLINK_ReadReg(R0)
T632C 000:628.947 - 0.003ms returns 0x00000000
T632C 000:629.012 JLINK_WriteMem(0x20000164, 0x400 Bytes, ...)
T632C 000:629.017   Data:  DB 1E 01 26 06 FA 05 F1 49 1E 21 40 99 40 9E 40 ...
T632C 000:629.028   CPU_WriteMem(1024 bytes @ 0x20000164)
T632C 000:633.607 - 4.594ms returns 0x400
T632C 000:633.636 JLINK_HasError()
T632C 000:633.644 JLINK_WriteReg(R0, 0x08000C00)
T632C 000:633.653 - 0.009ms returns 0
T632C 000:633.658 JLINK_WriteReg(R1, 0x00000400)
T632C 000:633.661 - 0.003ms returns 0
T632C 000:633.665 JLINK_WriteReg(R2, 0x20000164)
T632C 000:633.669 - 0.003ms returns 0
T632C 000:633.673 JLINK_WriteReg(R3, 0x00000000)
T632C 000:633.676 - 0.003ms returns 0
T632C 000:633.681 JLINK_WriteReg(R4, 0x00000000)
T632C 000:633.688 - 0.007ms returns 0
T632C 000:633.695 JLINK_WriteReg(R5, 0x00000000)
T632C 000:633.698 - 0.003ms returns 0
T632C 000:633.702 JLINK_WriteReg(R6, 0x00000000)
T632C 000:633.706 - 0.003ms returns 0
T632C 000:633.710 JLINK_WriteReg(R7, 0x00000000)
T632C 000:633.734 - 0.023ms returns 0
T632C 000:633.747 JLINK_WriteReg(R8, 0x00000000)
T632C 000:633.751 - 0.004ms returns 0
T632C 000:633.756 JLINK_WriteReg(R9, 0x20000160)
T632C 000:633.759 - 0.003ms returns 0
T632C 000:633.763 JLINK_WriteReg(R10, 0x00000000)
T632C 000:633.767 - 0.003ms returns 0
T632C 000:633.771 JLINK_WriteReg(R11, 0x00000000)
T632C 000:633.775 - 0.003ms returns 0
T632C 000:633.779 JLINK_WriteReg(R12, 0x00000000)
T632C 000:633.783 - 0.003ms returns 0
T632C 000:633.787 JLINK_WriteReg(R13 (SP), 0x20001000)
T632C 000:633.791 - 0.004ms returns 0
T632C 000:633.795 JLINK_WriteReg(R14, 0x20000001)
T632C 000:633.799 - 0.003ms returns 0
T632C 000:633.803 JLINK_WriteReg(R15 (PC), 0x200000F4)
T632C 000:633.807 - 0.003ms returns 0
T632C 000:633.811 JLINK_WriteReg(XPSR, 0x01000000)
T632C 000:633.814 - 0.003ms returns 0
T632C 000:633.818 JLINK_WriteReg(MSP, 0x20001000)
T632C 000:633.822 - 0.003ms returns 0
T632C 000:633.826 JLINK_WriteReg(PSP, 0x20001000)
T632C 000:633.830 - 0.003ms returns 0
T632C 000:633.834 JLINK_WriteReg(CFBP, 0x00000000)
T632C 000:633.837 - 0.003ms returns 0
T632C 000:633.842 JLINK_SetBPEx(Addr = 0x20000000, Type = 0xFFFFFFF2)
T632C 000:633.848 - 0.006ms returns 0x00000008
T632C 000:633.852 JLINK_Go()
T632C 000:633.866   CPU_ReadMem(4 bytes @ 0xE0001000)
T632C 000:636.571 - 2.718ms 
T632C 000:636.594 JLINK_IsHalted()
T632C 000:636.901 - 0.306ms returns FALSE
T632C 000:636.908 JLINK_HasError()
T632C 000:638.760 JLINK_IsHalted()
T632C 000:639.086 - 0.326ms returns FALSE
T632C 000:639.095 JLINK_HasError()
T632C 000:640.677 JLINK_IsHalted()
T632C 000:640.975 - 0.297ms returns FALSE
T632C 000:640.995 JLINK_HasError()
T632C 000:642.706 JLINK_IsHalted()
T632C 000:643.019 - 0.312ms returns FALSE
T632C 000:643.027 JLINK_HasError()
T632C 000:644.667 JLINK_IsHalted()
T632C 000:645.006 - 0.338ms returns FALSE
T632C 000:645.018 JLINK_HasError()
T632C 000:646.836 JLINK_IsHalted()
T632C 000:647.162 - 0.325ms returns FALSE
T632C 000:647.171 JLINK_HasError()
T632C 000:648.837 JLINK_IsHalted()
T632C 000:649.146 - 0.309ms returns FALSE
T632C 000:649.152 JLINK_HasError()
T632C 000:650.830 JLINK_IsHalted()
T632C 000:651.140 - 0.309ms returns FALSE
T632C 000:651.152 JLINK_HasError()
T632C 000:652.884 JLINK_IsHalted()
T632C 000:653.207 - 0.321ms returns FALSE
T632C 000:653.217 JLINK_HasError()
T632C 000:655.451 JLINK_IsHalted()
T632C 000:655.769 - 0.317ms returns FALSE
T632C 000:655.780 JLINK_HasError()
T632C 000:657.394 JLINK_IsHalted()
T632C 000:657.715 - 0.320ms returns FALSE
T632C 000:657.731 JLINK_HasError()
T632C 000:659.472 JLINK_IsHalted()
T632C 000:659.804 - 0.331ms returns FALSE
T632C 000:659.818 JLINK_HasError()
T632C 000:661.466 JLINK_IsHalted()
T632C 000:661.834 - 0.367ms returns FALSE
T632C 000:661.842 JLINK_HasError()
T632C 000:663.420 JLINK_IsHalted()
T632C 000:663.762 - 0.341ms returns FALSE
T632C 000:663.778 JLINK_HasError()
T632C 000:665.460 JLINK_IsHalted()
T632C 000:665.783 - 0.322ms returns FALSE
T632C 000:665.797 JLINK_HasError()
T632C 000:667.547 JLINK_IsHalted()
T632C 000:670.203   CPU_ReadMem(2 bytes @ 0x20000000)
T632C 000:670.539 - 2.991ms returns TRUE
T632C 000:670.562 JLINK_ReadReg(R15 (PC))
T632C 000:670.569 - 0.007ms returns 0x20000000
T632C 000:670.577 JLINK_ClrBPEx(BPHandle = 0x00000008)
T632C 000:670.581 - 0.004ms returns 0x00
T632C 000:670.588 JLINK_ReadReg(R0)
T632C 000:670.592 - 0.004ms returns 0x00000000
T632C 000:672.069 JLINK_WriteMem(0x20000164, 0x400 Bytes, ...)
T632C 000:672.081   Data:  C6 F8 00 80 FF F7 80 FD 07 46 04 E0 FF F7 7C FD ...
T632C 000:672.096   CPU_WriteMem(1024 bytes @ 0x20000164)
T632C 000:676.698 - 4.628ms returns 0x400
T632C 000:676.724 JLINK_HasError()
T632C 000:676.731 JLINK_WriteReg(R0, 0x08001000)
T632C 000:676.745 - 0.014ms returns 0
T632C 000:676.752 JLINK_WriteReg(R1, 0x00000400)
T632C 000:676.756 - 0.003ms returns 0
T632C 000:676.760 JLINK_WriteReg(R2, 0x20000164)
T632C 000:676.764 - 0.003ms returns 0
T632C 000:676.768 JLINK_WriteReg(R3, 0x00000000)
T632C 000:676.771 - 0.003ms returns 0
T632C 000:676.776 JLINK_WriteReg(R4, 0x00000000)
T632C 000:676.779 - 0.003ms returns 0
T632C 000:676.783 JLINK_WriteReg(R5, 0x00000000)
T632C 000:676.787 - 0.003ms returns 0
T632C 000:676.791 JLINK_WriteReg(R6, 0x00000000)
T632C 000:676.794 - 0.003ms returns 0
T632C 000:676.798 JLINK_WriteReg(R7, 0x00000000)
T632C 000:676.802 - 0.003ms returns 0
T632C 000:676.806 JLINK_WriteReg(R8, 0x00000000)
T632C 000:676.810 - 0.003ms returns 0
T632C 000:676.814 JLINK_WriteReg(R9, 0x20000160)
T632C 000:676.817 - 0.003ms returns 0
T632C 000:676.822 JLINK_WriteReg(R10, 0x00000000)
T632C 000:676.825 - 0.003ms returns 0
T632C 000:676.829 JLINK_WriteReg(R11, 0x00000000)
T632C 000:676.833 - 0.003ms returns 0
T632C 000:676.837 JLINK_WriteReg(R12, 0x00000000)
T632C 000:676.840 - 0.003ms returns 0
T632C 000:676.845 JLINK_WriteReg(R13 (SP), 0x20001000)
T632C 000:676.849 - 0.004ms returns 0
T632C 000:676.853 JLINK_WriteReg(R14, 0x20000001)
T632C 000:676.857 - 0.003ms returns 0
T632C 000:676.861 JLINK_WriteReg(R15 (PC), 0x200000F4)
T632C 000:676.865 - 0.003ms returns 0
T632C 000:676.869 JLINK_WriteReg(XPSR, 0x01000000)
T632C 000:676.872 - 0.003ms returns 0
T632C 000:676.876 JLINK_WriteReg(MSP, 0x20001000)
T632C 000:676.880 - 0.003ms returns 0
T632C 000:676.884 JLINK_WriteReg(PSP, 0x20001000)
T632C 000:676.887 - 0.003ms returns 0
T632C 000:676.891 JLINK_WriteReg(CFBP, 0x00000000)
T632C 000:676.895 - 0.003ms returns 0
T632C 000:676.900 JLINK_SetBPEx(Addr = 0x20000000, Type = 0xFFFFFFF2)
T632C 000:676.905 - 0.005ms returns 0x00000009
T632C 000:676.909 JLINK_Go()
T632C 000:676.921   CPU_ReadMem(4 bytes @ 0xE0001000)
T632C 000:679.672 - 2.762ms 
T632C 000:679.687 JLINK_IsHalted()
T632C 000:679.957 - 0.269ms returns FALSE
T632C 000:679.964 JLINK_HasError()
T632C 000:681.255 JLINK_IsHalted()
T632C 000:681.518 - 0.262ms returns FALSE
T632C 000:681.524 JLINK_HasError()
T632C 000:683.292 JLINK_IsHalted()
T632C 000:683.594 - 0.302ms returns FALSE
T632C 000:683.603 JLINK_HasError()
T632C 000:685.813 JLINK_IsHalted()
T632C 000:686.177 - 0.363ms returns FALSE
T632C 000:686.189 JLINK_HasError()
T632C 000:687.799 JLINK_IsHalted()
T632C 000:688.132 - 0.332ms returns FALSE
T632C 000:688.146 JLINK_HasError()
T632C 000:689.814 JLINK_IsHalted()
T632C 000:690.143 - 0.328ms returns FALSE
T632C 000:690.156 JLINK_HasError()
T632C 000:691.800 JLINK_IsHalted()
T632C 000:692.105 - 0.305ms returns FALSE
T632C 000:692.117 JLINK_HasError()
T632C 000:693.798 JLINK_IsHalted()
T632C 000:694.112 - 0.314ms returns FALSE
T632C 000:694.125 JLINK_HasError()
T632C 000:695.808 JLINK_IsHalted()
T632C 000:696.124 - 0.315ms returns FALSE
T632C 000:696.141 JLINK_HasError()
T632C 000:697.350 JLINK_IsHalted()
T632C 000:697.662 - 0.312ms returns FALSE
T632C 000:697.673 JLINK_HasError()
T632C 000:699.326 JLINK_IsHalted()
T632C 000:699.696 - 0.370ms returns FALSE
T632C 000:699.718 JLINK_HasError()
T632C 000:701.357 JLINK_IsHalted()
T632C 000:701.675 - 0.317ms returns FALSE
T632C 000:701.690 JLINK_HasError()
T632C 000:703.008 JLINK_IsHalted()
T632C 000:703.318 - 0.309ms returns FALSE
T632C 000:703.329 JLINK_HasError()
T632C 000:705.513 JLINK_IsHalted()
T632C 000:705.917 - 0.403ms returns FALSE
T632C 000:705.929 JLINK_HasError()
T632C 000:707.545 JLINK_IsHalted()
T632C 000:707.851 - 0.306ms returns FALSE
T632C 000:707.867 JLINK_HasError()
T632C 000:709.537 JLINK_IsHalted()
T632C 000:709.857 - 0.319ms returns FALSE
T632C 000:709.865 JLINK_HasError()
T632C 000:711.583 JLINK_IsHalted()
T632C 000:714.151   CPU_ReadMem(2 bytes @ 0x20000000)
T632C 000:714.470 - 2.886ms returns TRUE
T632C 000:714.477 JLINK_ReadReg(R15 (PC))
T632C 000:714.484 - 0.006ms returns 0x20000000
T632C 000:714.488 JLINK_ClrBPEx(BPHandle = 0x00000009)
T632C 000:714.495 - 0.006ms returns 0x00
T632C 000:714.501 JLINK_ReadReg(R0)
T632C 000:714.505 - 0.003ms returns 0x00000000
T632C 000:715.629 JLINK_WriteMem(0x20000164, 0x400 Bytes, ...)
T632C 000:715.643   Data:  6D FD 40 B9 70 1C 01 D0 71 19 00 E0 31 46 40 46 ...
T632C 000:715.658   CPU_WriteMem(1024 bytes @ 0x20000164)
T632C 000:720.206 - 4.575ms returns 0x400
T632C 000:720.226 JLINK_HasError()
T632C 000:720.233 JLINK_WriteReg(R0, 0x08001400)
T632C 000:720.241 - 0.009ms returns 0
T632C 000:720.246 JLINK_WriteReg(R1, 0x00000400)
T632C 000:720.250 - 0.003ms returns 0
T632C 000:720.254 JLINK_WriteReg(R2, 0x20000164)
T632C 000:720.257 - 0.003ms returns 0
T632C 000:720.261 JLINK_WriteReg(R3, 0x00000000)
T632C 000:720.265 - 0.003ms returns 0
T632C 000:720.269 JLINK_WriteReg(R4, 0x00000000)
T632C 000:720.273 - 0.003ms returns 0
T632C 000:720.277 JLINK_WriteReg(R5, 0x00000000)
T632C 000:720.280 - 0.003ms returns 0
T632C 000:720.285 JLINK_WriteReg(R6, 0x00000000)
T632C 000:720.288 - 0.003ms returns 0
T632C 000:720.293 JLINK_WriteReg(R7, 0x00000000)
T632C 000:720.296 - 0.003ms returns 0
T632C 000:720.300 JLINK_WriteReg(R8, 0x00000000)
T632C 000:720.304 - 0.003ms returns 0
T632C 000:720.308 JLINK_WriteReg(R9, 0x20000160)
T632C 000:720.311 - 0.003ms returns 0
T632C 000:720.316 JLINK_WriteReg(R10, 0x00000000)
T632C 000:720.319 - 0.003ms returns 0
T632C 000:720.323 JLINK_WriteReg(R11, 0x00000000)
T632C 000:720.327 - 0.003ms returns 0
T632C 000:720.331 JLINK_WriteReg(R12, 0x00000000)
T632C 000:720.334 - 0.003ms returns 0
T632C 000:720.339 JLINK_WriteReg(R13 (SP), 0x20001000)
T632C 000:720.343 - 0.004ms returns 0
T632C 000:720.347 JLINK_WriteReg(R14, 0x20000001)
T632C 000:720.350 - 0.003ms returns 0
T632C 000:720.355 JLINK_WriteReg(R15 (PC), 0x200000F4)
T632C 000:720.358 - 0.003ms returns 0
T632C 000:720.363 JLINK_WriteReg(XPSR, 0x01000000)
T632C 000:720.366 - 0.003ms returns 0
T632C 000:720.370 JLINK_WriteReg(MSP, 0x20001000)
T632C 000:720.374 - 0.003ms returns 0
T632C 000:720.378 JLINK_WriteReg(PSP, 0x20001000)
T632C 000:720.381 - 0.003ms returns 0
T632C 000:720.385 JLINK_WriteReg(CFBP, 0x00000000)
T632C 000:720.389 - 0.003ms returns 0
T632C 000:720.394 JLINK_SetBPEx(Addr = 0x20000000, Type = 0xFFFFFFF2)
T632C 000:720.399 - 0.005ms returns 0x0000000A
T632C 000:720.403 JLINK_Go()
T632C 000:720.415   CPU_ReadMem(4 bytes @ 0xE0001000)
T632C 000:723.039 - 2.635ms 
T632C 000:723.063 JLINK_IsHalted()
T632C 000:723.335 - 0.271ms returns FALSE
T632C 000:723.354 JLINK_HasError()
T632C 000:724.824 JLINK_IsHalted()
T632C 000:725.148 - 0.323ms returns FALSE
T632C 000:725.158 JLINK_HasError()
T632C 000:727.079 JLINK_IsHalted()
T632C 000:727.468 - 0.389ms returns FALSE
T632C 000:727.476 JLINK_HasError()
T632C 000:728.990 JLINK_IsHalted()
T632C 000:729.263 - 0.272ms returns FALSE
T632C 000:729.275 JLINK_HasError()
T632C 000:730.995 JLINK_IsHalted()
T632C 000:731.322 - 0.326ms returns FALSE
T632C 000:731.330 JLINK_HasError()
T632C 000:732.994 JLINK_IsHalted()
T632C 000:733.287 - 0.292ms returns FALSE
T632C 000:733.300 JLINK_HasError()
T632C 000:735.537 JLINK_IsHalted()
T632C 000:735.835 - 0.296ms returns FALSE
T632C 000:735.847 JLINK_HasError()
T632C 000:737.537 JLINK_IsHalted()
T632C 000:737.831 - 0.292ms returns FALSE
T632C 000:737.844 JLINK_HasError()
T632C 000:739.566 JLINK_IsHalted()
T632C 000:739.876 - 0.310ms returns FALSE
T632C 000:739.883 JLINK_HasError()
T632C 000:741.526 JLINK_IsHalted()
T632C 000:741.773 - 0.246ms returns FALSE
T632C 000:741.779 JLINK_HasError()
T632C 000:744.015 JLINK_IsHalted()
T632C 000:744.353 - 0.337ms returns FALSE
T632C 000:744.363 JLINK_HasError()
T632C 000:745.555 JLINK_IsHalted()
T632C 000:745.875 - 0.321ms returns FALSE
T632C 000:745.881 JLINK_HasError()
T632C 000:747.604 JLINK_IsHalted()
T632C 000:747.909 - 0.304ms returns FALSE
T632C 000:747.921 JLINK_HasError()
T632C 000:749.521 JLINK_IsHalted()
T632C 000:749.871 - 0.349ms returns FALSE
T632C 000:749.886 JLINK_HasError()
T632C 000:751.504 JLINK_IsHalted()
T632C 000:751.813 - 0.308ms returns FALSE
T632C 000:751.821 JLINK_HasError()
T632C 000:752.874 JLINK_IsHalted()
T632C 000:753.148 - 0.274ms returns FALSE
T632C 000:753.155 JLINK_HasError()
T632C 000:754.752 JLINK_IsHalted()
T632C 000:757.349   CPU_ReadMem(2 bytes @ 0x20000000)
T632C 000:757.652 - 2.900ms returns TRUE
T632C 000:757.661 JLINK_ReadReg(R15 (PC))
T632C 000:757.668 - 0.006ms returns 0x20000000
T632C 000:757.673 JLINK_ClrBPEx(BPHandle = 0x0000000A)
T632C 000:757.677 - 0.004ms returns 0x00
T632C 000:757.681 JLINK_ReadReg(R0)
T632C 000:757.685 - 0.003ms returns 0x00000000
T632C 000:757.718 JLINK_WriteMem(0x20000164, 0x400 Bytes, ...)
T632C 000:757.722   Data:  07 20 20 61 00 20 10 BD 70 B5 04 00 04 D0 94 F8 ...
T632C 000:757.732   CPU_WriteMem(1024 bytes @ 0x20000164)
T632C 000:762.340 - 4.621ms returns 0x400
T632C 000:762.358 JLINK_HasError()
T632C 000:762.365 JLINK_WriteReg(R0, 0x08001800)
T632C 000:762.373 - 0.008ms returns 0
T632C 000:762.377 JLINK_WriteReg(R1, 0x00000400)
T632C 000:762.381 - 0.003ms returns 0
T632C 000:762.385 JLINK_WriteReg(R2, 0x20000164)
T632C 000:762.389 - 0.003ms returns 0
T632C 000:762.393 JLINK_WriteReg(R3, 0x00000000)
T632C 000:762.396 - 0.003ms returns 0
T632C 000:762.401 JLINK_WriteReg(R4, 0x00000000)
T632C 000:762.404 - 0.003ms returns 0
T632C 000:762.408 JLINK_WriteReg(R5, 0x00000000)
T632C 000:762.412 - 0.003ms returns 0
T632C 000:762.416 JLINK_WriteReg(R6, 0x00000000)
T632C 000:762.419 - 0.003ms returns 0
T632C 000:762.423 JLINK_WriteReg(R7, 0x00000000)
T632C 000:762.427 - 0.003ms returns 0
T632C 000:762.431 JLINK_WriteReg(R8, 0x00000000)
T632C 000:762.434 - 0.003ms returns 0
T632C 000:762.439 JLINK_WriteReg(R9, 0x20000160)
T632C 000:762.442 - 0.003ms returns 0
T632C 000:762.446 JLINK_WriteReg(R10, 0x00000000)
T632C 000:762.450 - 0.003ms returns 0
T632C 000:762.454 JLINK_WriteReg(R11, 0x00000000)
